; CSV generated by libsigrok 0.6.0-git-bd70ec4
; from DreamSourceLab DSLogic on Tue May  8 13:52:40 2018
 2
; Samplerate: 20 MHz
logic,logic
0,0
1,0
0,0
1,0
0,0
1,0
0,0
1,0
0,0
1,0
0,0
1,0
0,0
1,0
0,0
1,0
0,0
1,0
0,0
1,0
0,0
1,0
0,0
1,0
0,0
1,0
0,0
1,0
0,0
1,0
0,0
1,0
0,0
1,0
0,0
1,0
0,0
1,0
0,0
1,0
0,0
0,0
0,0
1,0
0,0
1,0
0,0
1,0
0,0
1,0
0,0
1,0
0,0
1,0
0,0
1,0
0,0
1,0
0,0
1,0
0,0
1,0
0,0
1,0
0,0
1,0
0,0
1,0
0,0
1,0
0,0
1,0
0,0
1,0
0,0
1,0
0,0
1,0
0,0
1,0
0,0
1,0
0,0
0,0
0,0
1,0
0,0
1,0
0,0
1,0
0,0
1,0
0,0
1,0
0,0
1,0
0,0
1,0
0,0
1,0
0,0
1,0
0,0
1,0
0,0
1,0
0,0
1,0
0,0
1,0
0,0
1,0
0,0
1,0
0,0
1,0
0,0
1,0
0,0
1,0
0,0
1,0
0,0
1,0
0,0
1,0
0,0
0,0
0,0
1,0
0,0
1,0
0,0
1,0
0,0
1,0
0,0
1,0
0,0
1,0
0,0
1,0
0,0
1,0
0,0
1,0
0,0
1,0
0,0
1,0
0,0
1,0
0,0
1,0
0,0
1,0
0,0
1,0
0,0
1,0
0,0
1,0
0,0
1,0
0,0
1,0
0,0
1,0
0,0
0,0
0,0
1,0
0,0
1,0
0,0
1,0
0,0
1,0
0,0
1,0
0,0
1,0
0,0
1,0
0,0
1,0
0,0
1,0
0,0
1,0
0,0
1,0
0,0
1,0
0,0
1,0
0,0
1,0
0,0
1,0
0,0
1,0
0,0
1,0
0,0
1,0
0,0
1,0
0,0
1,0
0,0
0,0
0,0
1,0
0,0
1,0
0,0
1,0
0,0
1,0
0,0
1,0
0,0
1,0
0,0
1,0
0,0
1,0
0,0
1,0
0,0
1,0
0,0
1,0
0,0
1,0
0,0
1,0
0,0
1,0
0,0
1,0
0,0
1,0
0,0
1,0
0,0
1,0
0,0
1,0
0,0
1,0
0,0
0,0
0,0
1,0
0,0
1,0
0,0
1,0
0,0
1,0
0,0
1,0
0,0
1,0
0,0
1,0
0,0
1,0
0,0
1,0
0,0
1,0
0,0
1,0
0,0
1,0
0,0
1,0
0,0
1,0
0,0
1,0
0,0
1,0
0,0
1,0
0,0
1,0
0,0
1,0
0,0
1,0
0,0
1,0
0,0
0,0
0,0
1,0
0,0
1,0
0,0
1,0
0,0
1,0
0,0
1,0
0,0
1,0
0,0
1,0
0,0
1,0
0,0
1,0
0,0
1,0
0,0
1,0
0,0
1,0
0,0
1,0
0,0
1,0
0,0
1,0
0,0
1,0
0,0
1,0
0,0
1,0
0,0
1,0
0,0
1,0
0,0
0,0
0,0
1,0
0,0
1,0
0,0
1,0
0,0
1,0
0,0
1,0
0,0
1,0
0,0
1,0
0,0
1,0
0,0
1,0
0,0
1,0
0,0
1,0
0,0
1,0
0,0
1,0
0,0
1,0
0,0
1,0
0,0
1,0
0,0
1,0
0,0
1,0
0,0
1,0
0,0
1,0
0,0
0,0
0,0
1,0
0,0
1,0
0,0
1,0
0,0
1,0
0,0
1,0
0,0
1,0
0,0
1,0
0,0
1,0
0,0
1,0
0,0
1,0
0,0
1,0
0,0
1,0
0,0
1,0
0,0
1,0
0,0
1,0
0,0
1,0
0,0
1,0
0,0
1,0
0,0
1,0
0,0
1,0
0,0
0,0
0,0
1,0
0,0
1,0
0,0
1,0
0,0
1,0
0,0
1,0
0,0
1,0
0,0
1,0
0,0
1,0
0,0
1,0
0,0
1,0
0,0
1,0
0,0
1,0
0,0
1,0
0,0
1,0
0,0
1,0
0,0
1,0
0,0
1,0
0,0
1,0
0,0
1,0
0,0
1,0
0,0
1,0
0,0
0,0
0,0
1,0
0,0
1,0
0,0
1,0
0,0
1,0
0,0
1,0
0,0
1,0
0,0
1,0
0,0
1,0
0,0
1,0
0,0
1,0
0,0
1,0
0,0
1,0
0,0
1,0
0,0
1,0
0,0
1,0
0,0
1,0
0,0
1,0
0,0
1,0
0,0
1,0
0,0
1,0
0,0
0,0
0,0
1,0
0,0
1,0
0,0
1,0
0,0
1,0
0,0
1,0
0,0
1,0
0,0
1,0
0,0
1,0
0,0
1,0
0,0
1,0
0,0
1,0
0,0
1,0
0,0
1,0
0,0
1,0
0,0
1,0
0,0
1,0
0,0
1,0
0,0
1,0
0,0
1,0
0,0
1,0
0,0
0,0
0,0
1,0
0,0
1,0
0,0
1,0
0,0
1,0
0,0
1,0
0,0
1,0
0,0
1,0
0,0
1,0
0,0
1,0
0,0
1,0
0,0
1,0
0,0
1,0
0,0
1,0
0,0
1,0
0,0
1,0
0,0
1,0
0,0
1,0
0,0
1,0
0,0
1,0
0,0
1,0
0,0
0,0
0,0
1,0
0,0
1,0
0,0
1,0
0,0
1,0
0,0
1,0
0,0
1,0
0,0
1,0
0,0
1,0
0,0
1,0
0,0
1,0
0,0
1,0
0,0
1,0
0,0
1,0
0,0
1,0
0,0
1,0
0,0
1,0
0,0
1,0
0,0
1,0
0,0
1,0
0,0
1,0
0,0
1,0
0,0
0,0
0,0
1,0
0,0
1,0
0,0
1,0
0,0
1,0
0,0
1,0
0,0
1,0
0,0
1,0
0,0
1,0
0,0
1,0
0,0
1,0
0,0
1,0
0,0
1,0
0,0
1,0
0,0
1,0
0,0
1,0
0,0
1,0
0,0
1,0
0,0
1,0
0,0
1,0
0,0
1,0
0,0
0,0
0,0
1,0
0,0
1,0
0,0
1,0
0,0
1,0
0,0
1,0
0,0
1,0
0,0
1,0
0,0
1,0
0,0
1,0
0,0
1,0
0,0
1,0
0,0
1,0
0,0
1,0
0,0
1,0
0,0
1,0
0,0
1,0
0,0
1,0
0,0
1,0
0,0
1,0
0,0
1,0
0,0
0,0
0,0
1,0
0,0
1,0
0,0
1,0
0,0
1,0
0,0
1,0
0,0
1,0
0,0
1,0
0,0
1,0
0,0
1,0
0,0
1,0
0,0
1,0
0,0
1,0
0,0
1,0
0,0
1,0
0,0
1,0
0,0
1,0
0,0
1,0
0,0
1,0
0,0
1,0
0,0
1,0
0,0
0,0
0,0
1,0
0,0
1,0
0,0
1,0
0,0
1,0
0,0
1,0
0,0
1,0
0,0
1,0
0,0
1,0
0,0
1,0
0,0
1,0
0,0
1,0
0,0
1,0
0,0
1,0
0,0
1,0
0,0
1,0
0,0
1,0
0,0
1,0
0,0
1,0
0,0
1,0
0,0
1,0
0,0
1,0
0,0
0,0
0,0
1,0
0,0
1,0
0,0
1,0
0,0
1,0
0,0
1,0
0,0
1,0
0,0
1,0
0,0
1,0
0,0
1,0
0,0
1,0
0,0
1,0
0,0
1,0
0,0
1,0
0,0
1,0
0,0
1,0
0,0
1,0
0,0
1,0
0,0
1,0
0,0
1,0
0,0
1,0
0,0
0,0
0,0
1,0
0,0
1,0
0,0
1,0
0,0
1,0
0,0
1,0
0,0
1,0
0,0
1,0
0,0
1,0
0,0
1,0
0,0
1,0
0,0
1,0
0,0
1,0
0,0
1,0
0,0
1,0
0,0
1,0
0,0
1,0
1,1
1,0
1,1
0,1
0,0
1,0
0,0
1,1
1,0
1,1
1,0
1,1
1,0
1,1
1,0
1,1
1,0
1,1
1,0
1,1
1,0
1,1
0,0
1,1
0,1
0,0
1,1
0,0
0,0
0,0
1,1
0,0
1,1
0,1
0,0
1,1
0,1
0,0
1,1
0,1
0,0
1,1
0,1
0,0
1,1
0,1
0,0
1,1
0,1
0,0
1,1
0,0
1,1
0,1
0,0
1,1
0,1
0,0
1,1
0,1
0,0
1,1
0,1
0,0
1,1
0,0
1,1
0,1
0,0
1,1
0,1
0,0
1,1
0,0
1,1
0,1
0,0
1,1
0,1
0,0
1,1
0,1
0,0
1,1
0,1
0,0
0,0
0,0
1,1
0,1
0,0
1,1
0,0
1,1
0,1
0,0
1,1
0,1
0,0
1,1
0,1
0,0
1,1
0,1
0,0
1,1
0,0
1,1
0,1
0,0
1,0
1,1
0,1
0,0
1,0
1,1
0,1
0,0
1,1
0,1
0,0
1,1
0,1
0,0
1,1
0,1
0,0
1,1
0,1
0,0
1,1
0,1
0,0
1,1
0,1
0,0
1,0
1,1
0,1
0,0
1,1
0,0
1,0
1,1
0,1
0,0
1,1
0,0
1,1
0,0
0,0
0,0
1,0
1,1
0,1
0,0
1,1
0,1
0,0
1,0
1,1
0,1
0,0
1,1
0,1
0,0
1,1
0,1
0,0
1,1
0,1
0,0
1,1
0,1
0,0
1,0
1,1
0,1
0,0
1,1
0,0
1,1
0,0
1,1
0,1
0,0
1,1
0,1
0,0
1,1
0,0
1,1
0,1
0,0
1,1
0,1
0,0
1,1
0,1
0,0
1,0
1,1
0,1
0,0
1,1
0,0
1,1
0,1
0,0
1,1
0,1
0,0
0,0
0,0
1,1
0,1
0,0
1,1
0,1
0,0
1,1
0,1
0,0
1,1
0,1
0,0
1,0
1,1
0,1
0,0
1,1
0,1
0,0
1,1
0,1
0,0
1,1
0,1
0,0
1,1
0,1
0,0
1,1
0,1
0,0
1,1
0,1
0,0
1,1
0,1
0,0
1,1
0,1
0,0
1,1
0,0
1,1
0,1
0,0
1,0
1,1
0,1
0,0
1,1
0,1
0,0
1,1
0,0
1,1
0,1
0,0
1,1
0,1
0,0
0,0
0,0
1,1
0,1
0,0
1,1
0,0
1,1
0,1
0,0
1,1
0,1
0,0
1,1
0,1
0,0
1,1
0,1
0,0
1,1
0,0
1,1
0,1
0,0
1,1
0,1
0,0
1,1
0,1
0,0
1,1
0,1
0,0
1,1
0,1
0,0
1,1
0,1
0,0
1,1
0,0
1,1
0,1
0,0
1,1
0,1
0,0
1,1
0,1
0,0
1,1
0,1
0,0
1,1
0,1
0,0
1,1
0,1
0,0
0,0
0,0
1,1
0,1
0,0
1,1
0,1
0,0
1,1
0,1
0,0
1,1
0,0
1,1
0,1
0,0
1,1
0,0
1,1
0,1
0,0
1,0
1,1
0,0
1,1
0,1
0,0
1,1
0,1
0,0
1,1
0,0
1,1
0,1
0,0
1,1
0,0
1,0
1,1
1,0
1,1
0,1
0,0
1,0
0,0
1,0
0,0
1,0
0,0
1,0
0,0
1,0
0,0
1,0
0,0
1,0
0,0
0,0
0,0
1,0
0,0
1,0
0,0
1,0
0,0
1,0
0,0
1,0
0,0
1,0
0,0
1,0
0,0
1,0
0,0
1,0
0,0
1,0
0,0
1,0
0,0
1,0
0,0
1,0
0,0
1,0
0,0
1,0
0,0
1,0
0,0
1,0
0,0
1,0
0,0
1,0
0,0
1,0
0,0
0,0
0,0
1,0
0,0
1,0
0,0
1,0
0,0
1,0
0,0
1,0
0,0
1,0
0,0
1,0
0,0
1,0
0,0
1,0
0,0
1,0
0,0
1,0
0,0
1,0
0,0
1,0
0,0
1,0
0,0
1,0
0,0
1,0
0,0
1,0
0,0
1,0
0,0
1,0
0,0
1,0
0,0
0,0
0,0
1,0
0,0
1,0
0,0
1,0
0,0
1,0
0,0
1,0
0,0
1,0
0,0
1,0
0,0
1,0
0,0
1,0
0,0
1,0
0,0
1,0
0,0
1,0
0,0
1,0
0,0
1,0
0,0
1,0
0,0
1,0
0,0
1,0
0,0
1,0
0,0
1,0
0,0
1,0
0,0
0,0
0,0
1,0
0,0
1,0
0,0
1,0
0,0
1,0
0,0
1,0
0,0
1,0
0,0
1,0
0,0
1,0
0,0
1,0
0,0
1,0
0,0
1,0
0,0
1,0
0,0
1,0
0,0
1,0
0,0
1,0
0,0
1,0
0,0
1,1
0,0
1,0
1,1
0,1
0,0
1,0
1,1
1,0
1,1
1,0
0,0
1,0
0,1
1,1
1,0
0,0
1,1
0,0
0,0
0,0
1,1
0,1
0,0
1,1
0,1
0,0
1,1
0,0
1,1
0,1
0,0
1,1
0,0
1,1
0,1
0,0
1,1
0,1
0,0
1,1
0,0
1,1
0,1
0,0
1,0
1,1
0,1
0,0
1,1
0,0
1,1
0,1
0,0
1,1
0,1
0,0
1,0
1,1
0,1
0,0
1,0
1,1
0,1
0,0
1,1
0,1
0,0
1,1
0,0
1,1
0,1
0,0
1,1
0,1
0,0
1,1
0,1
0,0
1,1
0,1
0,0
0,0
0,0
1,1
0,1
0,0
1,1
0,1
0,0
1,1
0,1
0,0
1,1
0,0
1,1
0,0
1,1
0,1
0,0
1,1
0,1
0,0
1,1
0,0
1,1
0,1
0,0
1,1
0,1
0,0
1,1
0,1
0,0
1,1
0,0
1,1
0,0
1,1
0,1
0,0
1,1
0,1
0,0
1,0
1,1
0,1
0,0
1,1
0,1
0,0
1,0
1,1
0,1
0,0
1,1
0,1
0,0
1,1
0,1
0,0
0,0
0,0
1,0
1,1
0,1
0,0
1,1
0,1
0,0
1,1
0,1
0,0
1,1
0,1
0,0
1,1
0,1
0,0
1,1
0,1
0,0
1,1
0,1
0,0
1,1
0,0
1,1
0,1
0,0
1,1
0,1
0,0
1,1
0,1
0,0
1,1
0,0
1,1
0,1
0,0
1,1
0,0
1,1
0,0
1,1
0,0
1,1
0,1
0,0
1,1
0,1
0,0
1,1
0,1
0,0
1,1
0,1
0,0
0,0
0,0
1,1
0,0
1,1
0,1
0,0
1,1
0,1
0,0
1,1
0,1
0,0
1,0
1,1
0,1
0,0
1,0
1,1
0,0
1,1
0,1
0,0
1,1
0,1
0,0
1,1
0,1
0,0
1,1
0,1
0,0
1,1
0,1
0,0
1,1
0,1
0,0
1,0
1,1
0,1
0,0
1,1
0,1
0,0
1,1
0,1
0,0
1,1
0,0
1,1
0,1
0,0
1,1
0,0
1,0
1,1
0,1
0,0
1,1
0,1
0,0
1,1
0,1
0,0
0,0
0,0
1,1
0,0
1,1
0,1
0,0
1,1
0,1
0,0
1,1
0,1
0,0
1,0
1,1
0,1
0,0
1,1
0,0
1,1
0,1
0,0
1,1
0,1
0,0
1,1
0,0
1,1
0,0
1,1
0,1
0,0
1,1
0,1
0,0
1,1
0,0
1,1
0,1
0,0
1,1
0,0
1,1
0,0
1,0
1,1
0,1
0,0
1,1
0,1
0,0
1,1
0,1
0,0
1,1
0,1
0,0
1,1
0,0
0,0
0,0
1,1
0,1
0,0
1,1
0,1
0,0
1,1
0,1
0,0
1,1
0,1
0,0
1,1
0,0
1,1
0,1
0,0
1,1
0,1
0,0
1,1
0,1
0,0
1,0
0,0
1,0
0,0
1,0
0,0
1,0
0,0
1,0
0,0
1,0
0,0
1,0
0,0
1,0
0,0
1,0
0,0
1,0
0,0
1,0
0,0
1,0
0,0
0,0
0,0
1,0
0,0
1,0
0,0
1,0
0,0
1,0
0,0
1,0
0,0
1,0
0,0
1,0
0,0
1,0
0,0
1,0
0,0
1,0
0,0
1,0
0,0
1,0
0,0
1,0
0,0
1,0
0,0
1,0
0,0
1,0
0,0
1,0
0,0
1,0
0,0
1,0
0,0
1,0
0,0
0,0
0,0
1,0
0,0
1,0
0,0
1,0
0,0
1,0
0,0
1,0
0,0
1,0
0,0
1,0
0,0
1,0
0,0
1,0
0,0
1,0
0,0
1,0
0,0
1,0
0,0
1,0
0,0
1,0
0,0
1,0
0,0
1,0
0,0
1,0
0,0
1,0
0,0
1,0
0,0
1,0
0,0
1,0
0,0
0,0
0,0
1,0
0,0
1,0
0,0
1,0
0,0
1,0
0,0
1,0
0,0
1,0
0,0
1,0
0,0
1,0
0,0
1,0
0,0
1,0
0,0
1,0
0,0
1,0
0,0
1,0
0,0
1,0
0,0
1,0
0,0
1,0
0,0
1,0
0,0
1,0
0,0
1,0
0,0
1,0
0,0
0,0
0,0
1,0
0,0
1,0
0,0
1,0
0,0
1,0
0,0
1,0
0,0
1,0
0,0
1,0
0,0
1,0
0,0
1,1
0,1
0,0
1,0
0,0
1,1
0,1
0,0
1,0
0,0
1,1
0,0
1,1
0,0
1,1
0,1
0,0
1,0
1,1
0,1
0,0
1,1
0,1
0,0
1,1
0,1
0,0
1,1
0,1
0,0
1,1
0,1
0,0
0,0
0,0
1,1
0,1
0,0
1,0
1,1
0,1
0,0
1,1
0,1
0,0
1,1
0,1
0,0
1,1
0,0
1,0
1,1
0,1
0,0
1,1
0,1
0,0
1,1
0,1
0,0
1,1
0,1
0,0
1,1
0,1
0,0
1,1
0,0
1,1
0,0
1,1
0,1
0,0
1,0
1,1
0,1
0,0
1,1
0,1
0,0
1,1
0,1
0,0
1,1
0,0
1,1
0,1
0,0
1,1
0,0
1,1
0,1
0,0
0,0
0,0
1,1
0,1
0,0
1,1
0,1
0,0
1,1
0,1
0,0
1,0
1,1
0,1
0,0
1,1
0,1
0,0
1,1
0,1
0,0
1,1
0,0
1,1
0,1
0,0
1,1
0,1
0,0
1,1
0,1
0,0
1,1
0,1
0,0
1,1
0,0
1,1
0,1
0,0
1,1
0,1
0,0
1,1
0,0
1,0
1,1
0,1
0,0
1,1
0,1
0,0
1,1
0,1
0,0
1,1
0,0
1,1
0,0
1,1
0,1
0,0
0,0
0,0
1,1
0,1
0,0
1,1
0,1
0,0
1,1
0,1
0,0
1,1
0,0
1,1
0,0
1,1
0,0
1,1
0,0
1,1
0,1
0,0
1,1
0,1
0,0
1,1
0,1
0,0
1,1
0,1
0,0
1,1
0,0
1,1
0,1
0,0
1,1
0,1
0,0
1,1
0,0
1,1
0,1
0,0
1,1
0,0
1,1
0,1
0,0
1,0
1,1
0,1
0,0
1,1
0,1
0,0
0,0
0,0
1,1
0,1
0,0
1,1
0,1
0,0
1,1
0,0
1,1
0,1
0,0
1,0
1,1
0,1
0,0
1,1
0,1
0,0
1,1
0,1
0,0
1,0
1,1
0,1
0,0
1,1
0,1
0,0
1,1
0,1
0,0
1,1
0,1
0,0
1,1
0,1
0,0
1,1
0,1
0,0
1,1
0,1
0,0
1,1
0,0
1,1
0,1
0,0
1,1
0,1
0,0
1,1
0,1
0,0
1,1
0,1
0,0
1,1
0,0
0,0
0,0
1,1
0,1
0,0
1,1
0,1
0,0
1,1
0,0
1,1
0,1
0,0
1,1
0,1
0,0
1,1
1,0
1,1
1,0
0,1
0,0
1,0
0,0
1,0
0,0
1,0
0,0
1,0
0,0
1,0
0,0
1,0
0,0
1,0
0,0
1,0
0,0
1,0
0,0
1,0
0,0
1,0
0,0
1,0
0,0
1,0
0,0
1,0
0,0
0,0
0,0
1,0
0,0
1,0
0,0
1,0
0,0
1,0
0,0
1,0
0,0
1,0
0,0
1,0
0,0
1,0
0,0
1,0
0,0
1,0
0,0
1,0
0,0
1,0
0,0
1,0
0,0
1,0
0,0
1,0
0,0
1,0
0,0
1,0
0,0
1,0
0,0
1,0
0,0
1,0
0,0
1,0
0,0
0,0
0,0
1,0
0,0
1,0
0,0
1,0
0,0
1,0
0,0
1,0
0,0
1,0
0,0
1,0
1,1
1,0
0,0
1,1
0,1
0,0
1,1
0,1
0,0
1,1
0,1
0,0
1,1
0,1
0,0
1,1
0,1
0,0
1,1
0,1
0,0
1,1
0,1
0,0
1,1
0,0
1,1
0,0
1,1
0,1
0,0
1,1
0,1
0,0
1,1
0,0
1,1
0,1
0,0
0,0
0,0
1,1
0,0
1,1
0,1
0,0
1,1
0,1
0,0
1,1
0,1
0,0
1,1
0,1
0,0
1,1
0,1
0,0
1,1
0,1
0,0
1,1
0,0
1,1
0,1
0,0
1,0
1,1
0,1
0,0
1,0
1,1
0,1
0,0
1,1
0,1
0,0
1,0
1,1
0,1
0,0
1,1
0,0
1,1
0,0
1,1
0,1
0,0
1,1
0,1
0,0
1,1
0,1
0,0
1,1
0,1
0,0
1,0
1,1
0,1
0,0
0,0
0,0
1,0
1,1
0,1
0,0
1,1
0,1
0,0
1,1
0,1
0,0
1,1
0,1
0,0
1,1
0,1
0,0
1,1
0,1
0,0
1,1
0,1
0,0
1,0
1,1
0,1
0,0
1,1
0,0
1,1
0,0
1,1
0,0
1,0
1,1
0,1
0,0
1,1
0,1
0,0
1,1
0,0
1,1
0,1
0,0
1,1
0,1
0,0
1,1
0,0
1,1
0,0
1,1
0,1
0,0
1,1
0,1
0,0
0,0
0,0
1,1
0,1
0,0
1,1
0,0
1,1
0,1
0,0
1,1
0,1
0,0
1,0
1,1
0,1
0,0
1,0
1,1
0,1
0,0
1,1
0,1
0,0
1,1
0,1
0,0
1,0
1,1
0,1
0,0
1,1
0,1
0,0
1,1
0,1
0,0
1,1
0,1
0,0
1,1
0,1
0,0
1,1
0,1
0,0
1,0
1,1
0,1
0,0
1,1
0,1
0,0
1,1
0,1
0,0
1,1
0,1
0,0
1,1
0,0
1,1
0,1
0,0
0,0
0,0
1,1
0,0
1,1
0,1
0,0
1,1
0,1
0,0
1,1
0,1
0,0
1,1
0,1
0,0
1,1
0,1
0,0
1,1
0,1
0,0
1,1
0,1
0,0
1,1
0,1
0,0
1,1
0,1
0,0
1,1
0,1
0,0
1,1
0,1
0,0
1,1
0,0
1,1
0,1
0,0
1,1
0,1
0,0
1,1
0,1
0,0
1,1
0,1
0,0
1,1
0,1
0,0
1,1
0,1
0,0
1,1
0,1
0,0
1,1
0,0
0,0
0,0
1,1
0,0
1,1
0,0
1,1
0,0
1,1
0,1
0,0
1,1
0,0
1,1
0,0
1,1
0,1
0,0
1,1
0,0
1,1
0,1
0,0
1,1
0,1
0,0
1,1
0,1
0,0
1,1
0,1
0,0
1,1
0,0
1,1
1,0
1,1
1,0
1,1
1,0
0,0
1,0
0,0
1,0
0,0
1,0
0,0
1,0
0,0
1,0
0,0
1,0
0,0
0,0
0,0
1,0
0,0
1,0
0,0
1,0
0,0
1,0
0,0
1,0
0,0
1,0
0,0
1,0
0,0
1,0
0,0
1,0
0,0
1,0
0,0
1,0
0,0
1,0
0,0
1,0
0,0
1,0
0,0
1,0
0,0
1,0
0,0
1,0
0,0
1,0
0,0
1,0
0,0
1,0
0,0
0,0
0,0
1,0
0,0
1,0
0,0
1,0
0,0
1,0
0,0
1,0
0,0
1,0
0,0
1,0
0,0
1,0
0,0
1,0
0,0
1,0
0,0
1,0
0,0
1,0
0,0
1,0
0,0
1,0
0,0
1,0
0,0
1,0
0,0
1,0
0,0
1,0
0,0
1,0
0,0
1,0
0,0
0,0
0,0
1,0
0,0
1,0
0,0
1,0
0,0
1,0
0,0
1,0
0,0
1,0
0,0
1,0
0,0
1,0
0,0
1,0
0,0
1,0
0,0
1,0
0,0
1,0
0,0
1,0
0,0
1,0
0,0
1,0
0,0
1,1
1,0
1,1
1,0
1,1
0,0
1,1
0,1
0,0
1,1
0,1
0,0
1,1
0,1
0,0
1,1
0,1
0,0
1,1
0,1
0,0
0,0
0,0
1,0
1,1
0,1
0,0
1,1
0,0
1,1
0,1
0,0
1,1
0,1
0,0
1,1
0,1
0,0
1,1
0,1
0,0
1,0
1,1
0,1
0,0
1,1
0,1
0,0
1,1
0,1
0,0
1,1
0,0
1,1
0,1
0,0
1,1
0,1
0,0
1,1
0,0
1,1
0,0
1,1
0,1
0,0
1,1
0,1
0,0
1,1
0,1
0,0
1,1
0,1
0,0
1,1
0,1
0,0
1,1
0,0
0,0
0,0
1,1
0,1
0,0
1,1
0,1
0,0
1,1
0,1
0,0
1,1
0,1
0,0
1,1
0,0
1,1
0,0
1,1
0,0
1,1
0,1
0,0
1,1
0,1
0,0
1,1
0,1
0,0
1,1
0,1
0,0
1,1
0,1
0,0
1,1
0,0
1,1
0,1
0,0
1,1
0,1
0,0
1,0
1,1
0,1
0,0
1,0
1,1
0,1
0,0
1,0
1,1
0,1
0,0
1,1
0,1
0,0
1,1
0,1
0,0
0,0
0,0
1,1
0,1
0,0
1,1
0,1
0,0
1,1
0,1
0,0
1,1
0,1
0,0
1,1
0,0
1,1
0,1
0,0
1,1
0,0
1,1
0,1
0,0
1,1
0,0
1,0
1,1
0,1
0,0
1,1
0,1
0,0
1,1
0,1
0,0
1,1
0,0
1,1
0,1
0,0
1,1
0,0
1,1
0,0
1,1
0,1
0,0
1,1
0,0
1,1
0,0
1,1
0,0
0,0
0,0
1,0
1,1
0,1
0,0
1,1
0,1
0,0
1,1
0,1
0,0
1,1
0,1
0,0
1,1
0,1
0,0
1,1
0,1
0,0
1,0
1,1
0,1
0,0
1,1
0,1
0,0
1,0
1,1
0,1
0,0
1,1
0,0
1,0
1,1
0,1
0,0
1,1
0,1
0,0
1,1
0,1
0,0
1,1
0,1
0,0
1,1
0,0
1,1
0,1
0,0
1,1
0,0
1,1
0,1
0,0
1,1
0,1
0,0
1,1
0,1
0,0
1,0
1,1
0,1
0,0
0,0
0,0
1,1
0,1
0,0
1,1
0,1
0,0
1,1
0,0
1,1
0,0
1,1
0,0
1,1
0,1
0,0
1,1
0,0
1,0
1,1
0,1
0,0
1,1
0,1
0,0
1,1
0,0
1,1
0,1
0,0
1,1
0,0
1,1
0,0
1,0
1,1
0,1
0,0
1,1
0,1
0,0
1,1
0,1
0,0
1,1
0,0
1,0
1,1
0,1
0,0
1,1
0,1
0,0
1,0
1,1
0,1
0,0
0,0
0,0
1,0
1,1
0,1
0,0
1,1
0,0
1,1
0,0
1,0
1,1
0,1
0,0
1,1
0,1
0,0
1,1
0,1
0,0
1,1
0,1
0,0
1,1
0,1
0,0
1,1
0,1
0,0
1,1
0,1
0,0
1,1
0,1
0,0
1,1
0,1
0,0
1,1
0,0
1,1
0,1
0,0
1,1
0,1
0,0
1,0
1,1
0,1
0,0
1,1
0,1
0,0
1,1
0,0
1,1
0,1
0,0
1,1
0,1
0,0
0,0
0,0
1,1
0,0
1,1
0,1
0,0
1,0
1,1
0,0
1,1
0,1
0,0
1,1
0,1
0,0
1,1
0,0
1,1
0,1
0,0
1,1
0,1
0,0
1,1
0,0
1,1
0,1
0,0
1,1
0,1
0,0
1,1
0,1
0,0
1,0
1,1
0,1
0,0
1,1
0,0
1,1
0,1
0,0
1,1
0,1
0,0
1,1
0,1
0,0
1,1
0,0
1,1
0,0
1,1
0,1
0,0
0,0
0,0
1,1
0,0
1,0
1,1
0,1
0,0
1,1
0,1
0,0
1,1
0,1
0,0
1,1
0,1
0,0
1,1
0,1
0,0
1,1
0,0
1,0
1,1
0,1
0,0
1,1
0,0
1,1
0,1
0,0
1,0
1,1
0,1
0,0
1,1
0,1
0,0
1,1
0,1
0,0
1,0
1,1
0,1
0,0
1,1
0,0
1,1
0,1
0,0
1,1
0,0
1,1
0,1
0,0
1,1
0,1
0,0
1,1
0,1
0,0
1,1
0,1
0,0
0,0
0,0
1,1
0,1
0,0
1,1
0,1
0,0
1,1
0,1
0,0
1,1
0,1
0,0
1,1
0,0
1,1
0,1
0,0
1,1
0,1
0,0
1,1
0,1
0,0
1,1
0,0
1,1
0,0
1,1
0,1
0,0
1,1
0,1
0,0
1,1
0,1
0,0
1,1
0,1
0,0
1,1
0,1
0,0
1,1
0,1
0,0
1,0
1,1
0,0
1,1
0,1
0,0
1,1
0,1
0,0
1,1
0,1
0,0
0,0
0,0
1,1
0,1
0,0
1,1
0,1
0,0
1,1
0,0
1,1
0,1
0,0
1,1
0,0
1,1
0,1
0,0
1,1
0,1
0,0
1,1
0,0
1,0
1,1
0,1
0,0
1,1
0,0
1,1
0,1
0,0
1,1
0,0
1,1
0,1
0,0
1,1
0,1
0,0
1,1
0,1
0,0
1,1
0,1
0,0
1,1
0,0
1,1
0,1
0,0
1,1
0,1
0,0
1,1
0,1
0,0
0,0
0,0
1,1
0,1
0,0
1,1
0,1
0,0
1,1
0,0
1,1
0,0
1,1
0,1
0,0
1,1
0,1
0,0
1,1
0,1
0,0
1,1
0,1
0,0
1,1
0,1
0,0
1,1
0,1
0,0
1,1
0,1
0,0
1,1
0,1
0,0
1,0
1,1
0,1
0,0
1,1
0,1
0,0
1,1
0,0
1,1
0,1
0,0
1,1
0,0
1,1
0,1
0,0
1,1
0,1
0,0
1,1
0,1
0,0
0,0
0,0
1,1
0,1
0,0
1,1
0,1
0,0
1,1
0,1
0,0
1,1
0,1
0,0
1,1
0,1
0,0
1,1
0,1
0,0
1,1
0,1
0,0
1,0
1,1
0,1
0,0
1,1
0,0
1,0
1,1
0,0
1,1
0,0
1,0
1,1
0,1
0,0
1,1
0,1
0,0
1,1
0,0
1,1
0,1
0,0
1,1
0,1
0,0
1,1
0,1
0,0
1,1
0,1
0,0
1,1
0,1
0,0
1,1
0,1
0,0
1,1
0,1
0,0
0,0
0,0
1,1
0,1
0,0
1,0
1,1
0,1
0,0
1,1
0,0
1,1
0,1
0,0
1,0
1,1
0,1
0,0
1,1
0,0
1,1
0,1
0,0
1,1
0,1
0,0
1,1
0,1
0,0
1,1
0,1
0,0
1,1
0,0
1,1
0,1
0,0
1,1
0,1
0,0
1,0
1,1
0,1
0,0
1,1
0,0
1,1
0,1
0,0
1,1
0,0
1,1
0,1
0,0
1,1
0,0
1,1
0,1
0,0
0,0
0,0
1,1
0,1
0,0
1,1
0,1
0,0
1,1
0,1
0,0
1,1
0,0
1,1
0,1
0,0
1,1
0,1
0,0
1,1
0,1
0,0
1,1
0,1
0,0
1,1
0,1
0,0
1,1
0,0
1,1
0,1
0,0
1,1
0,1
0,0
1,1
0,0
1,1
0,0
1,1
0,0
1,1
0,1
0,0
1,1
0,1
0,0
1,1
0,0
1,1
0,1
0,0
1,1
0,0
0,0
0,0
1,1
0,1
0,0
1,1
0,1
0,0
1,1
0,1
0,0
1,1
0,1
0,0
1,1
0,1
0,0
1,1
0,0
1,1
0,1
0,0
1,1
0,0
1,1
0,1
0,0
1,1
0,1
0,0
1,1
0,0
1,1
0,0
1,1
0,0
1,1
0,1
0,0
1,1
0,0
1,1
0,0
1,1
0,1
0,0
1,1
0,0
1,1
0,1
0,0
1,1
0,1
0,0
0,0
0,0
1,1
0,1
0,0
1,1
0,1
0,0
1,0
1,1
0,1
0,0
1,1
0,1
0,0
1,1
0,1
0,0
1,1
0,1
0,0
1,1
0,1
0,0
1,1
0,1
0,0
1,1
0,1
0,0
1,1
0,1
0,0
1,0
1,1
0,1
0,0
1,1
0,0
1,1
0,0
1,0
1,1
0,1
0,0
1,1
0,1
0,0
1,1
0,1
0,0
1,1
0,1
0,0
1,1
0,1
0,0
1,1
0,1
0,0
1,1
0,1
0,0
1,1
0,1
0,0
0,0
0,0
1,1
0,1
0,0
1,1
0,1
0,0
1,1
0,1
0,0
1,1
0,1
0,0
1,1
0,1
0,0
1,1
0,1
0,0
1,1
0,1
0,0
1,1
0,1
0,0
1,1
0,1
0,0
1,1
0,0
1,1
0,1
0,0
1,1
0,1
0,0
1,1
0,1
0,0
1,1
0,0
1,1
0,1
0,0
1,1
0,0
1,1
0,1
0,0
1,1
0,1
0,0
1,1
0,1
0,0
1,1
0,1
0,0
0,0
0,0
1,0
1,1
0,1
0,0
1,1
0,0
1,1
0,1
0,0
1,0
1,1
0,1
0,0
1,0
1,1
0,1
0,0
1,1
0,1
0,0
1,1
0,0
1,1
0,1
0,0
1,1
0,0
1,1
0,1
0,0
1,1
0,1
0,0
1,1
0,0
1,1
0,1
0,0
1,1
0,1
0,0
1,1
0,0
1,1
0,1
0,0
1,1
0,1
0,0
1,1
0,1
0,0
1,1
0,0
1,1
0,0
0,0
0,0
1,1
0,1
0,0
1,1
0,1
0,0
1,1
0,0
1,1
0,0
1,1
0,0
1,1
0,1
0,0
1,1
0,1
0,0
1,1
0,1
0,0
1,1
0,1
0,0
1,1
0,1
0,0
1,1
0,0
1,1
0,0
1,1
0,1
0,0
1,1
0,1
0,0
1,1
0,1
0,0
1,1
0,1
0,0
1,1
0,1
0,0
1,0
1,1
0,1
0,0
1,1
0,1
0,0
1,1
0,1
0,0
0,0
0,0
1,1
0,0
1,1
0,1
0,0
1,1
0,1
0,0
1,1
0,1
0,0
1,1
0,1
0,0
1,1
0,0
1,1
0,1
0,0
1,0
1,1
0,0
1,1
0,1
0,0
1,1
0,0
1,1
0,0
1,1
0,1
0,0
1,1
0,1
0,0
1,1
0,1
0,0
1,1
0,1
0,0
1,1
0,1
0,0
1,1
0,0
1,1
0,0
1,1
0,0
1,1
0,0
1,1
0,1
0,0
0,0
0,0
1,1
0,1
0,0
1,1
0,1
0,0
1,1
0,0
1,1
0,0
1,1
0,1
0,0
1,1
0,1
0,0
1,1
0,0
1,1
0,1
0,0
1,1
0,1
0,0
1,1
0,0
1,1
0,1
0,0
1,1
0,1
0,0
1,1
0,1
0,0
1,1
0,1
0,0
1,1
0,1
0,0
1,1
0,1
0,0
1,1
0,1
0,0
1,1
0,1
0,0
1,1
0,0
1,1
0,1
0,0
0,0
0,0
1,0
1,1
0,1
0,0
1,1
0,1
0,0
1,1
0,1
0,0
1,1
0,1
0,0
1,1
0,1
0,0
1,1
0,0
1,1
0,0
1,1
0,0
1,1
0,1
0,0
1,1
0,0
1,0
1,1
0,1
0,0
1,1
0,1
0,0
1,1
0,0
1,1
0,0
1,1
0,1
0,0
1,1
0,0
1,1
0,0
1,1
0,1
0,0
1,1
0,0
1,1
0,1
0,0
0,0
0,0
1,1
0,0
1,1
0,1
0,0
1,1
0,1
0,0
1,1
0,0
1,1
0,0
1,1
0,0
1,1
0,1
0,0
1,1
0,1
0,0
1,1
0,0
1,1
0,1
0,0
1,1
0,0
1,1
0,0
1,0
1,1
0,1
0,0
1,1
0,1
0,0
1,1
0,1
0,0
1,1
0,1
0,0
1,0
1,1
0,0
1,1
0,1
0,0
1,1
0,0
1,1
0,1
0,0
0,0
0,0
1,1
0,1
0,0
1,1
0,0
1,1
0,1
0,0
1,1
0,1
0,0
1,1
0,1
0,0
1,1
0,1
0,0
1,1
0,1
0,0
1,1
0,0
1,1
0,1
0,0
1,0
1,1
0,1
0,0
1,1
0,1
0,0
1,1
0,0
1,1
0,1
0,0
1,1
0,1
0,0
1,1
0,1
0,0
1,1
0,0
1,1
0,0
1,1
0,1
0,0
1,1
0,1
0,0
1,1
0,1
0,0
1,1
0,1
0,0
0,0
0,0
1,1
0,1
0,0
1,1
0,1
0,0
1,1
0,0
1,0
1,1
0,1
0,0
1,1
0,0
1,1
0,0
1,1
0,1
0,0
1,1
0,0
1,1
0,1
0,0
1,1
0,0
1,1
0,0
1,1
0,0
1,1
0,1
0,0
1,1
0,1
0,0
1,1
0,0
1,1
0,1
0,0
1,1
0,1
0,0
1,1
0,1
0,0
1,0
1,1
0,1
0,0
1,1
0,1
0,0
0,0
0,0
1,1
0,1
0,0
1,1
0,1
0,0
1,1
0,1
0,0
1,1
0,0
1,1
0,1
0,0
1,1
0,1
0,0
1,1
0,0
1,1
0,1
0,0
1,1
0,1
0,0
1,1
0,1
0,0
1,1
0,1
0,0
1,1
0,1
0,0
1,1
0,1
0,0
1,1
0,1
0,0
1,1
0,1
0,0
1,1
0,1
0,0
1,1
0,1
0,0
1,0
1,1
0,1
0,0
1,1
0,1
0,0
1,0
1,1
0,1
0,0
0,0
0,0
1,1
0,0
1,1
0,1
0,0
1,1
0,0
1,1
0,1
0,0
1,1
0,1
0,0
1,1
0,1
0,0
1,1
0,1
0,0
1,1
0,1
0,0
1,1
0,1
0,0
1,1
0,1
0,0
1,1
0,1
0,0
1,1
0,0
1,0
0,1
1,1
1,0
0,0
1,0
0,0
1,0
0,0
1,0
0,0
1,0
0,0
1,0
0,0
1,0
0,0
1,0
0,0
0,0
0,0
1,0
0,0
1,0
0,0
1,0
0,0
1,0
0,0
1,0
0,0
1,0
0,0
1,0
0,0
1,0
0,0
1,0
0,0
1,0
0,0
1,0
0,0
1,0
0,0
1,0
0,0
1,0
0,0
1,0
0,0
1,0
0,0
1,0
0,0
1,0
0,0
1,0
0,0
1,0
0,0
1,0
0,0
0,0
0,0
1,0
0,0
1,0
0,0
1,0
0,0
1,0
0,0
1,0
0,0
1,0
0,0
1,0
0,0
1,0
0,0
1,0
0,0
1,0
0,0
1,0
0,0
1,0
0,0
1,0
0,0
1,0
0,0
1,0
0,0
1,0
0,0
1,0
0,0
1,0
0,0
1,0
0,0
1,0
0,0
0,0
0,0
1,0
0,0
1,0
0,0
1,0
0,0
1,0
0,0
1,0
0,0
1,0
0,0
1,0
0,0
1,0
0,0
1,0
0,0
1,0
0,0
1,0
0,0
1,0
0,0
1,0
0,0
1,0
0,0
1,0
0,0
1,0
0,0
1,0
0,0
1,0
0,0
1,0
0,0
1,0
0,0
0,0
0,0
1,0
0,0
1,0
0,0
1,0
0,0
1,0
0,0
1,0
0,0
1,0
0,0
1,0
0,0
1,0
0,0
1,0
0,0
1,0
0,0
1,0
0,0
1,0
0,0
1,1
0,1
0,0
1,1
0,1
0,0
1,1
0,0
1,1
0,0
1,1
0,0
1,0
1,1
0,1
0,0
1,1
0,0
1,1
0,1
0,0
0,0
0,0
1,1
0,0
1,1
0,0
1,1
0,1
0,0
1,1
0,1
0,0
1,1
0,1
0,0
1,1
0,1
0,0
1,1
0,1
0,0
1,1
0,1
0,0
1,1
0,1
0,0
1,1
0,1
0,0
1,1
0,0
1,1
0,1
0,0
1,1
0,1
0,0
1,1
0,1
0,0
1,1
0,1
0,0
1,1
0,0
1,1
0,1
0,0
1,1
0,1
0,0
1,1
0,1
0,0
1,1
0,1
0,0
1,1
0,1
0,0
0,0
0,0
1,0
1,1
0,1
0,0
1,0
1,1
0,1
0,0
1,1
0,0
1,1
0,1
0,0
1,0
1,1
0,0
1,1
0,1
0,0
1,1
0,0
1,1
0,1
0,0
1,1
0,1
0,0
1,1
0,1
0,0
1,1
0,1
0,0
1,1
0,0
1,1
0,1
0,0
1,1
0,0
1,1
0,1
0,0
1,1
0,0
1,1
0,1
0,0
1,1
0,0
1,1
0,1
0,0
1,1
0,1
0,0
0,0
0,0
1,1
0,1
0,0
1,1
0,1
0,0
1,1
0,1
0,0
1,0
1,1
0,0
1,1
0,0
1,1
0,1
0,0
1,1
0,1
0,0
1,1
0,1
0,0
1,1
0,0
1,1
0,0
1,1
0,0
1,0
1,1
0,1
0,0
1,1
0,1
0,0
1,1
0,1
0,0
1,1
0,1
0,0
1,1
0,1
0,0
1,1
0,1
0,0
1,1
0,1
0,0
1,1
0,1
0,0
1,1
0,1
0,0
0,0
0,0
1,1
0,1
0,0
1,1
0,1
0,0
1,1
0,1
0,0
1,1
0,0
1,1
0,1
0,0
1,1
0,1
0,0
1,1
0,1
0,0
1,1
0,1
0,0
1,1
0,1
0,0
1,1
0,0
1,1
0,1
0,0
1,1
0,1
0,0
1,1
0,1
0,0
1,1
0,0
1,1
0,1
0,0
1,1
0,1
0,0
1,1
0,1
0,0
1,1
0,0
1,1
0,1
0,0
1,1
0,0
0,0
0,0
1,1
0,0
1,1
0,1
0,0
1,1
0,1
0,0
1,1
0,1
0,0
1,1
0,1
0,0
1,1
0,1
0,0
1,1
0,1
0,0
1,1
0,0
1,1
0,1
0,0
1,1
0,1
0,0
1,0
1,1
0,1
0,0
1,0
0,0
1,0
0,0
1,0
0,0
1,0
0,0
1,0
0,0
1,0
0,0
1,0
0,0
1,0
0,0
1,0
0,0
1,0
0,0
0,0
0,0
1,0
0,0
1,0
0,0
1,0
0,0
1,0
0,0
1,0
0,0
1,0
0,0
1,0
0,0
1,0
0,0
1,0
0,0
1,0
0,0
1,0
0,0
1,0
0,0
1,0
0,0
1,0
0,0
1,0
0,0
1,0
0,0
1,0
0,0
1,0
0,0
1,0
0,0
1,0
0,0
0,0
0,0
1,0
0,0
1,0
0,0
1,0
0,0
1,0
0,0
1,0
0,0
1,0
0,0
1,0
0,0
1,0
0,0
1,0
0,0
1,0
0,0
1,0
0,0
1,0
0,0
1,0
0,0
1,0
0,0
1,0
0,0
1,0
0,0
1,0
0,0
1,0
0,0
1,0
0,0
1,0
0,0
0,0
0,0
1,0
0,0
1,0
0,0
1,0
0,0
1,1
0,1
0,0
1,1
0,1
0,0
1,1
0,1
0,0
1,1
0,0
1,1
0,1
0,0
1,0
